[0x00+0x12+0xB8+0xF0+]
[0x00+0x12+0xB8+0xEF+]
[0x00+0x12+0xCF+0xF0+]
[0x00+0x12+0xC0+0x0F+]
[0x00+0x60+0xCF+0xF0+]
[0x00+0x12+0xB8+0xF0+]
[0x00+0x60+0xB0+0x0F+]
[0x00+0x12+0xB8+0x70+0x00+0x01+0x00+0x00+0x13+0x00+0x00+0x00+0x13+0x00+0x08+0x00+0x00+]
[0x00+0x60+0xB0+0xCA+0xFF+]
[0x00+0x12+0xB8+0x0F+0xCA+]
[0x00+0x60+0xB0+0x6A+]
[0x00+0x12+0xB8+0x6A+0x4D+0x44+0x53+0x2D+0x50+0x43+0x33+0x00+0x00+0x00+0x00+0x00+0x00+0x00+]
[0x00+0x60+0xB0+0x6A+]
[0x00+0x12+0xB8+0x6A+0x4D+0x44+0x53+0x2D+0x50+0x43+0x33+0x00+0x00+0x00+0x00+0x00+0x00+0x00+]
[0x00+0x60+0xB0+0x22+]
[0x00+0x12+0xB8+0x61+0x00+0x01+0x00+0x06+0x02+0x11+]
[0x00+0x60+0xB0+0xF4+0x00+]
[0x00+0x12+0xB8+0x0F+0xF4+]
[0x00+0x60+0xB0+0xCA+0xFF+]
[0x00+0x12+0xB8+0x0F+0xCA+]
[0x00+0x60+0xB0+0x0F+]
[0x00+0x12+0xB8+0x70+0x00+0x01+0x00+0x00+0x13+0x00+0x00+0x00+0x13+0x00+0x08+0x00+0x00+]
[0x00+0x60+0xB0+0x28+0x00+]
[0x00+0x12+0xB8+0x0E+0x28+]
[0x00+0x60+0xB0+0x72+]
[0x00+0x12+0xB8+0x72+0x00+0x00+0x00+0x00+0x00+0x00+0x00+0x00+0x00+0x00+0x00+]
[0x00+0x60+0xB0+0x0E+0x00+0x01+]
[0x00+0x12+0xB8+0x71+0x00+0x01+0x00+0x00+0x00+0xFF+0xFF+0xFF+0x00+0x00+0x00+0x00+0x00+]
[0x00+0x60+0xB0+0x25+]
[0x00+0x60+0xB0+0x74+0x00+0x01+0x00+]
[0x00+0x12+0xB8+0x51+0x00+0xFF+0xFF+0xFF+0x00+]
[0x00+0x12+0xB8+0x74+0x01+0x32+]
[0x00+0x60+0xB0+0x74+0x00+0x02+0x00+]
[0x00+0x12+0xB8+0x74+0x02+0x32+]
[0x00+0x60+0xB0+0x57+0x00+0x00+]
[0x00+0x12+0xB8+0x57+0xCE+]
[0x00+0x60+0xB0+0x0F+]
[0x00+0x12+0xB8+0x70+0x00+0x01+0x00+0x00+0x13+0x00+0x00+0x00+0x13+0x00+0x08+0x00+0x00+]
[0x00+0x60+0xB0+0x2F+]
[0x00+0x12+0xB8+0xD8+]
[0x00-[][0x00-][0x00-][0x00-][0x00-][0x00-[]
